    * c:\users\Nishit\esim-workspace\comparator\comparator.cir
    Transient Analysis  Tue Oct 04 19:34:28  2022
--------------------------------------------------------------------------------
Index   time            a0              a1              b0              
--------------------------------------------------------------------------------
0	0.000000e+00	0.000000e+00	0.000000e+00	0.000000e+00	
1	5.000000e-08	0.000000e+00	0.000000e+00	0.000000e+00	
2	5.200000e-08	0.000000e+00	0.000000e+00	0.000000e+00	
3	5.204564e-08	0.000000e+00	0.000000e+00	0.000000e+00	
4	5.213693e-08	0.000000e+00	0.000000e+00	0.000000e+00	
5	5.231949e-08	0.000000e+00	0.000000e+00	0.000000e+00	
6	5.251843e-08	0.000000e+00	0.000000e+00	0.000000e+00	
7	5.270466e-08	0.000000e+00	0.000000e+00	0.000000e+00	
8	5.281325e-08	0.000000e+00	0.000000e+00	0.000000e+00	
9	5.291926e-08	0.000000e+00	0.000000e+00	0.000000e+00	
10	5.298606e-08	0.000000e+00	0.000000e+00	0.000000e+00	
11	5.300000e-08	0.000000e+00	0.000000e+00	0.000000e+00	
12	5.300542e-08	0.000000e+00	0.000000e+00	0.000000e+00	
13	5.301625e-08	0.000000e+00	0.000000e+00	0.000000e+00	
14	5.303793e-08	0.000000e+00	0.000000e+00	0.000000e+00	
15	5.306957e-08	0.000000e+00	0.000000e+00	0.000000e+00	
16	5.311261e-08	0.000000e+00	0.000000e+00	0.000000e+00	
17	5.319868e-08	0.000000e+00	0.000000e+00	0.000000e+00	
18	5.331625e-08	0.000000e+00	0.000000e+00	0.000000e+00	
19	5.342625e-08	0.000000e+00	0.000000e+00	0.000000e+00	
20	5.357251e-08	0.000000e+00	0.000000e+00	0.000000e+00	
21	5.378065e-08	0.000000e+00	0.000000e+00	0.000000e+00	
22	5.419692e-08	0.000000e+00	0.000000e+00	0.000000e+00	
23	5.467486e-08	0.000000e+00	0.000000e+00	0.000000e+00	
24	5.539307e-08	0.000000e+00	0.000000e+00	0.000000e+00	
25	5.624695e-08	0.000000e+00	0.000000e+00	0.000000e+00	
26	5.760829e-08	0.000000e+00	0.000000e+00	0.000000e+00	
27	5.945786e-08	0.000000e+00	0.000000e+00	0.000000e+00	
28	6.291397e-08	0.000000e+00	0.000000e+00	0.000000e+00	
29	6.895401e-08	0.000000e+00	0.000000e+00	0.000000e+00	
30	8.103409e-08	0.000000e+00	0.000000e+00	0.000000e+00	
31	1.051943e-07	0.000000e+00	0.000000e+00	0.000000e+00	
32	1.535146e-07	0.000000e+00	0.000000e+00	0.000000e+00	
33	2.501552e-07	0.000000e+00	0.000000e+00	0.000000e+00	
34	4.434365e-07	0.000000e+00	0.000000e+00	0.000000e+00	
35	8.299990e-07	0.000000e+00	0.000000e+00	0.000000e+00	
36	1.603124e-06	0.000000e+00	0.000000e+00	0.000000e+00	
37	3.149374e-06	0.000000e+00	0.000000e+00	0.000000e+00	
38	5.000000e-06	0.000000e+00	0.000000e+00	0.000000e+00	
39	5.309250e-06	0.000000e+00	0.000000e+00	0.000000e+00	
40	5.927750e-06	0.000000e+00	0.000000e+00	0.000000e+00	
41	7.164750e-06	0.000000e+00	0.000000e+00	0.000000e+00	
42	9.638750e-06	0.000000e+00	0.000000e+00	0.000000e+00	
43	1.458675e-05	0.000000e+00	0.000000e+00	0.000000e+00	
44	2.448275e-05	0.000000e+00	0.000000e+00	0.000000e+00	
45	4.427475e-05	0.000000e+00	0.000000e+00	0.000000e+00	
46	8.385876e-05	0.000000e+00	0.000000e+00	0.000000e+00	
47	1.630268e-04	0.000000e+00	0.000000e+00	0.000000e+00	
48	3.213628e-04	0.000000e+00	0.000000e+00	0.000000e+00	
49	5.213628e-04	0.000000e+00	0.000000e+00	0.000000e+00	
50	7.213628e-04	0.000000e+00	0.000000e+00	0.000000e+00	
51	9.213628e-04	0.000000e+00	0.000000e+00	0.000000e+00	
52	1.000000e-03	0.000000e+00	0.000000e+00	0.000000e+00	
53	1.000500e-03	0.000000e+00	1.800000e-01	0.000000e+00	
54	1.000502e-03	0.000000e+00	1.807200e-01	0.000000e+00	

Index   time            a0              a1              b0              
--------------------------------------------------------------------------------
55	1.000502e-03	0.000000e+00	1.807352e-01	0.000000e+00	
56	1.000502e-03	0.000000e+00	1.807656e-01	0.000000e+00	
57	1.000502e-03	0.000000e+00	1.808264e-01	0.000000e+00	
58	1.000502e-03	0.000000e+00	1.808915e-01	0.000000e+00	
59	1.000503e-03	0.000000e+00	1.809469e-01	0.000000e+00	
60	1.000503e-03	0.000000e+00	1.810086e-01	0.000000e+00	
61	1.000503e-03	0.000000e+00	1.810449e-01	0.000000e+00	
62	1.000503e-03	0.000000e+00	1.810800e-01	0.000000e+00	
63	1.000503e-03	0.000000e+00	1.810846e-01	0.000000e+00	
64	1.000503e-03	0.000000e+00	1.810939e-01	0.000000e+00	
65	1.000503e-03	0.000000e+00	1.811125e-01	0.000000e+00	
66	1.000503e-03	0.000000e+00	1.811497e-01	0.000000e+00	
67	1.000503e-03	0.000000e+00	1.811965e-01	0.000000e+00	
68	1.000504e-03	0.000000e+00	1.812684e-01	0.000000e+00	
69	1.000504e-03	0.000000e+00	1.813340e-01	0.000000e+00	
70	1.000504e-03	0.000000e+00	1.814192e-01	0.000000e+00	
71	1.000504e-03	0.000000e+00	1.814723e-01	0.000000e+00	
72	1.000504e-03	0.000000e+00	1.815220e-01	0.000000e+00	
73	1.000504e-03	0.000000e+00	1.815735e-01	0.000000e+00	
74	1.000505e-03	0.000000e+00	1.816325e-01	0.000000e+00	
75	1.000505e-03	0.000000e+00	1.817504e-01	0.000000e+00	
76	1.000505e-03	0.000000e+00	1.818829e-01	0.000000e+00	
77	1.000506e-03	0.000000e+00	1.820505e-01	0.000000e+00	
78	1.000506e-03	0.000000e+00	1.823251e-01	0.000000e+00	
79	1.000507e-03	0.000000e+00	1.826182e-01	0.000000e+00	
80	1.000508e-03	0.000000e+00	1.829938e-01	0.000000e+00	
81	1.000510e-03	0.000000e+00	1.834957e-01	0.000000e+00	
82	1.000512e-03	0.000000e+00	1.842764e-01	0.000000e+00	
83	1.000516e-03	0.000000e+00	1.857292e-01	0.000000e+00	
84	1.000524e-03	0.000000e+00	1.886348e-01	0.000000e+00	
85	1.000540e-03	0.000000e+00	1.944461e-01	0.000000e+00	
86	1.000572e-03	0.000000e+00	2.060686e-01	0.000000e+00	
87	1.000637e-03	0.000000e+00	2.293135e-01	0.000000e+00	
88	1.000766e-03	0.000000e+00	2.758035e-01	0.000000e+00	
89	1.001024e-03	0.000000e+00	3.687835e-01	0.000000e+00	
90	1.001541e-03	0.000000e+00	5.547433e-01	0.000000e+00	
91	1.002574e-03	0.000000e+00	9.266631e-01	0.000000e+00	
92	1.004640e-03	0.000000e+00	1.670503e+00	0.000000e+00	
93	1.005000e-03	0.000000e+00	1.800000e+00	0.000000e+00	
94	1.005413e-03	0.000000e+00	1.800000e+00	0.000000e+00	
95	1.006240e-03	0.000000e+00	1.800000e+00	0.000000e+00	
96	1.007893e-03	0.000000e+00	1.800000e+00	0.000000e+00	
97	1.011199e-03	0.000000e+00	1.800000e+00	0.000000e+00	
98	1.017811e-03	0.000000e+00	1.800000e+00	0.000000e+00	
99	1.031034e-03	0.000000e+00	1.800000e+00	0.000000e+00	
100	1.057482e-03	0.000000e+00	1.800000e+00	0.000000e+00	
101	1.110377e-03	0.000000e+00	1.800000e+00	0.000000e+00	
102	1.216168e-03	0.000000e+00	1.800000e+00	0.000000e+00	
103	1.416168e-03	0.000000e+00	1.800000e+00	0.000000e+00	
104	1.616168e-03	0.000000e+00	1.800000e+00	0.000000e+00	
105	1.816168e-03	0.000000e+00	1.800000e+00	0.000000e+00	
106	2.000000e-03	0.000000e+00	1.800000e+00	0.000000e+00	
107	2.000500e-03	1.800000e-01	1.800000e+00	0.000000e+00	
108	2.000502e-03	1.807200e-01	1.800000e+00	0.000000e+00	
109	2.000502e-03	1.807351e-01	1.800000e+00	0.000000e+00	
110	2.000502e-03	1.807654e-01	1.800000e+00	0.000000e+00	
111	2.000502e-03	1.808260e-01	1.800000e+00	0.000000e+00	
112	2.000502e-03	1.808988e-01	1.800000e+00	0.000000e+00	

Index   time            a0              a1              b0              
--------------------------------------------------------------------------------
113	2.000503e-03	1.809647e-01	1.800000e+00	0.000000e+00	
114	2.000503e-03	1.810384e-01	1.800000e+00	0.000000e+00	
115	2.000503e-03	1.810800e-01	1.800000e+00	0.000000e+00	
116	2.000503e-03	1.810853e-01	1.800000e+00	0.000000e+00	
117	2.000503e-03	1.810960e-01	1.800000e+00	0.000000e+00	
118	2.000503e-03	1.811173e-01	1.800000e+00	0.000000e+00	
119	2.000503e-03	1.811553e-01	1.800000e+00	0.000000e+00	
120	2.000503e-03	1.811775e-01	1.800000e+00	0.000000e+00	
121	2.000503e-03	1.812025e-01	1.800000e+00	0.000000e+00	
122	2.000503e-03	1.812270e-01	1.800000e+00	0.000000e+00	
123	2.000503e-03	1.812587e-01	1.800000e+00	0.000000e+00	
124	2.000504e-03	1.812919e-01	1.800000e+00	0.000000e+00	
125	2.000504e-03	1.813461e-01	1.800000e+00	0.000000e+00	
126	2.000504e-03	1.814134e-01	1.800000e+00	0.000000e+00	
127	2.000504e-03	1.814896e-01	1.800000e+00	0.000000e+00	
128	2.000504e-03	1.815841e-01	1.800000e+00	0.000000e+00	
129	2.000505e-03	1.817266e-01	1.800000e+00	0.000000e+00	
130	2.000505e-03	1.819610e-01	1.800000e+00	0.000000e+00	
131	2.000507e-03	1.824300e-01	1.800000e+00	0.000000e+00	
132	2.000509e-03	1.833679e-01	1.800000e+00	0.000000e+00	
133	2.000514e-03	1.850046e-01	1.800000e+00	0.000000e+00	
134	2.000522e-03	1.877806e-01	1.800000e+00	0.000000e+00	
135	2.000536e-03	1.928317e-01	1.800000e+00	0.000000e+00	
136	2.000561e-03	2.019426e-01	1.800000e+00	0.000000e+00	
137	2.000612e-03	2.201643e-01	1.800000e+00	0.000000e+00	
138	2.000713e-03	2.566077e-01	1.800000e+00	0.000000e+00	
139	2.000915e-03	3.294947e-01	1.800000e+00	0.000000e+00	
140	2.001320e-03	4.752685e-01	1.800000e+00	0.000000e+00	
141	2.002130e-03	7.668162e-01	1.800000e+00	0.000000e+00	
142	2.003750e-03	1.349912e+00	1.800000e+00	0.000000e+00	
143	2.005000e-03	1.800000e+00	1.800000e+00	0.000000e+00	
144	2.005324e-03	1.800000e+00	1.800000e+00	0.000000e+00	
145	2.005972e-03	1.800000e+00	1.800000e+00	0.000000e+00	
146	2.007268e-03	1.800000e+00	1.800000e+00	0.000000e+00	
147	2.009859e-03	1.800000e+00	1.800000e+00	0.000000e+00	
148	2.015042e-03	1.800000e+00	1.800000e+00	0.000000e+00	
149	2.025408e-03	1.800000e+00	1.800000e+00	0.000000e+00	
150	2.046141e-03	1.800000e+00	1.800000e+00	0.000000e+00	
151	2.087605e-03	1.800000e+00	1.800000e+00	0.000000e+00	
152	2.170534e-03	1.800000e+00	1.800000e+00	0.000000e+00	
153	2.336393e-03	1.800000e+00	1.800000e+00	0.000000e+00	
154	2.505000e-03	1.800000e+00	1.800000e+00	0.000000e+00	
155	2.505500e-03	1.800000e+00	1.800000e+00	0.000000e+00	
156	2.506500e-03	1.800000e+00	1.800000e+00	0.000000e+00	
157	2.508500e-03	1.800000e+00	1.800000e+00	0.000000e+00	
158	2.510000e-03	1.800000e+00	1.800000e+00	0.000000e+00	
159	2.510002e-03	1.800000e+00	1.800000e+00	0.000000e+00	
160	2.510002e-03	1.800000e+00	1.800000e+00	0.000000e+00	
161	2.510002e-03	1.800000e+00	1.800000e+00	0.000000e+00	
162	2.510002e-03	1.800000e+00	1.800000e+00	0.000000e+00	
163	2.510002e-03	1.800000e+00	1.800000e+00	0.000000e+00	
164	2.510003e-03	1.800000e+00	1.800000e+00	0.000000e+00	
165	2.510003e-03	1.800000e+00	1.800000e+00	0.000000e+00	
166	2.510003e-03	1.800000e+00	1.800000e+00	0.000000e+00	
167	2.510003e-03	1.800000e+00	1.800000e+00	0.000000e+00	
168	2.510003e-03	1.800000e+00	1.800000e+00	0.000000e+00	
169	2.510003e-03	1.800000e+00	1.800000e+00	0.000000e+00	
170	2.510003e-03	1.800000e+00	1.800000e+00	0.000000e+00	

Index   time            a0              a1              b0              
--------------------------------------------------------------------------------
171	2.510003e-03	1.800000e+00	1.800000e+00	0.000000e+00	
172	2.510003e-03	1.800000e+00	1.800000e+00	0.000000e+00	
173	2.510003e-03	1.800000e+00	1.800000e+00	0.000000e+00	
174	2.510003e-03	1.800000e+00	1.800000e+00	0.000000e+00	
175	2.510003e-03	1.800000e+00	1.800000e+00	0.000000e+00	
176	2.510003e-03	1.800000e+00	1.800000e+00	0.000000e+00	
177	2.510003e-03	1.800000e+00	1.800000e+00	0.000000e+00	
178	2.510003e-03	1.800000e+00	1.800000e+00	0.000000e+00	
179	2.510003e-03	1.800000e+00	1.800000e+00	0.000000e+00	
180	2.510003e-03	1.800000e+00	1.800000e+00	0.000000e+00	
181	2.510003e-03	1.800000e+00	1.800000e+00	0.000000e+00	
182	2.510004e-03	1.800000e+00	1.800000e+00	0.000000e+00	
183	2.510004e-03	1.800000e+00	1.800000e+00	0.000000e+00	
184	2.510005e-03	1.800000e+00	1.800000e+00	0.000000e+00	
185	2.510006e-03	1.800000e+00	1.800000e+00	0.000000e+00	
186	2.510008e-03	1.800000e+00	1.800000e+00	0.000000e+00	
187	2.510011e-03	1.800000e+00	1.800000e+00	0.000000e+00	
188	2.510017e-03	1.800000e+00	1.800000e+00	0.000000e+00	
189	2.510030e-03	1.800000e+00	1.800000e+00	0.000000e+00	
190	2.510056e-03	1.800000e+00	1.800000e+00	0.000000e+00	
191	2.510108e-03	1.800000e+00	1.800000e+00	0.000000e+00	
192	2.510212e-03	1.800000e+00	1.800000e+00	0.000000e+00	
193	2.510419e-03	1.800000e+00	1.800000e+00	0.000000e+00	
194	2.510834e-03	1.800000e+00	1.800000e+00	0.000000e+00	
195	2.511663e-03	1.800000e+00	1.800000e+00	0.000000e+00	
196	2.513322e-03	1.800000e+00	1.800000e+00	0.000000e+00	
197	2.516639e-03	1.800000e+00	1.800000e+00	0.000000e+00	
198	2.523274e-03	1.800000e+00	1.800000e+00	0.000000e+00	
199	2.536543e-03	1.800000e+00	1.800000e+00	0.000000e+00	
200	2.563081e-03	1.800000e+00	1.800000e+00	0.000000e+00	
201	2.616158e-03	1.800000e+00	1.800000e+00	0.000000e+00	
202	2.722313e-03	1.800000e+00	1.800000e+00	0.000000e+00	
203	2.922313e-03	1.800000e+00	1.800000e+00	0.000000e+00	
204	3.122313e-03	1.800000e+00	1.800000e+00	0.000000e+00	
205	3.322313e-03	1.800000e+00	1.800000e+00	0.000000e+00	
206	3.505000e-03	1.800000e+00	1.800000e+00	0.000000e+00	
207	3.505500e-03	1.800000e+00	1.620000e+00	0.000000e+00	
208	3.506500e-03	1.800000e+00	1.260000e+00	0.000000e+00	
209	3.508500e-03	1.800000e+00	5.400000e-01	0.000000e+00	
210	3.510000e-03	1.800000e+00	0.000000e+00	0.000000e+00	
211	3.510002e-03	1.800000e+00	0.000000e+00	0.000000e+00	
212	3.510002e-03	1.800000e+00	0.000000e+00	0.000000e+00	
213	3.510002e-03	1.800000e+00	0.000000e+00	0.000000e+00	
214	3.510002e-03	1.800000e+00	0.000000e+00	0.000000e+00	
215	3.510002e-03	1.800000e+00	0.000000e+00	0.000000e+00	
216	3.510003e-03	1.800000e+00	0.000000e+00	0.000000e+00	
217	3.510003e-03	1.800000e+00	0.000000e+00	0.000000e+00	
218	3.510003e-03	1.800000e+00	0.000000e+00	0.000000e+00	
219	3.510003e-03	1.800000e+00	0.000000e+00	0.000000e+00	
220	3.510003e-03	1.800000e+00	0.000000e+00	0.000000e+00	
221	3.510003e-03	1.800000e+00	0.000000e+00	0.000000e+00	
222	3.510003e-03	1.800000e+00	0.000000e+00	0.000000e+00	
223	3.510003e-03	1.800000e+00	0.000000e+00	0.000000e+00	
224	3.510004e-03	1.800000e+00	0.000000e+00	0.000000e+00	
225	3.510004e-03	1.800000e+00	0.000000e+00	0.000000e+00	
226	3.510005e-03	1.800000e+00	0.000000e+00	0.000000e+00	
227	3.510007e-03	1.800000e+00	0.000000e+00	0.000000e+00	
228	3.510011e-03	1.800000e+00	0.000000e+00	0.000000e+00	

Index   time            a0              a1              b0              
--------------------------------------------------------------------------------
229	3.510017e-03	1.800000e+00	0.000000e+00	0.000000e+00	
230	3.510028e-03	1.800000e+00	0.000000e+00	0.000000e+00	
231	3.510049e-03	1.800000e+00	0.000000e+00	0.000000e+00	
232	3.510087e-03	1.800000e+00	0.000000e+00	0.000000e+00	
233	3.510160e-03	1.800000e+00	0.000000e+00	0.000000e+00	
234	3.510296e-03	1.800000e+00	0.000000e+00	0.000000e+00	
235	3.510560e-03	1.800000e+00	0.000000e+00	0.000000e+00	
236	3.511073e-03	1.800000e+00	0.000000e+00	0.000000e+00	
237	3.512097e-03	1.800000e+00	0.000000e+00	0.000000e+00	
238	3.514144e-03	1.800000e+00	0.000000e+00	0.000000e+00	
239	3.518238e-03	1.800000e+00	0.000000e+00	0.000000e+00	
240	3.526427e-03	1.800000e+00	0.000000e+00	0.000000e+00	
241	3.542804e-03	1.800000e+00	0.000000e+00	0.000000e+00	
242	3.575558e-03	1.800000e+00	0.000000e+00	0.000000e+00	
243	3.641067e-03	1.800000e+00	0.000000e+00	0.000000e+00	
244	3.772084e-03	1.800000e+00	0.000000e+00	0.000000e+00	
245	3.972084e-03	1.800000e+00	0.000000e+00	0.000000e+00	
246	4.000000e-03	1.800000e+00	0.000000e+00	0.000000e+00	
247	4.000500e-03	1.800000e+00	0.000000e+00	1.800000e-01	
248	4.000502e-03	1.800000e+00	0.000000e+00	1.807200e-01	
249	4.000502e-03	1.800000e+00	0.000000e+00	1.807352e-01	
250	4.000502e-03	1.800000e+00	0.000000e+00	1.807656e-01	
251	4.000502e-03	1.800000e+00	0.000000e+00	1.808264e-01	
252	4.000502e-03	1.800000e+00	0.000000e+00	1.808698e-01	
253	4.000503e-03	1.800000e+00	0.000000e+00	1.809051e-01	
254	4.000503e-03	1.800000e+00	0.000000e+00	1.809418e-01	
255	4.000503e-03	1.800000e+00	0.000000e+00	1.809685e-01	
256	4.000503e-03	1.800000e+00	0.000000e+00	1.809926e-01	
257	4.000503e-03	1.800000e+00	0.000000e+00	1.810139e-01	
258	4.000503e-03	1.800000e+00	0.000000e+00	1.810368e-01	
259	4.000503e-03	1.800000e+00	0.000000e+00	1.810603e-01	
260	4.000503e-03	1.800000e+00	0.000000e+00	1.810800e-01	
261	4.000503e-03	1.800000e+00	0.000000e+00	1.810826e-01	
262	4.000503e-03	1.800000e+00	0.000000e+00	1.810879e-01	
263	4.000503e-03	1.800000e+00	0.000000e+00	1.810985e-01	
264	4.000503e-03	1.800000e+00	0.000000e+00	1.811112e-01	
265	4.000503e-03	1.800000e+00	0.000000e+00	1.811283e-01	
266	4.000503e-03	1.800000e+00	0.000000e+00	1.811466e-01	
267	4.000503e-03	1.800000e+00	0.000000e+00	1.811831e-01	
268	4.000503e-03	1.800000e+00	0.000000e+00	1.812335e-01	
269	4.000504e-03	1.800000e+00	0.000000e+00	1.812890e-01	
270	4.000504e-03	1.800000e+00	0.000000e+00	1.813555e-01	
271	4.000504e-03	1.800000e+00	0.000000e+00	1.814010e-01	
272	4.000504e-03	1.800000e+00	0.000000e+00	1.814419e-01	
273	4.000504e-03	1.800000e+00	0.000000e+00	1.814856e-01	
274	4.000504e-03	1.800000e+00	0.000000e+00	1.815518e-01	
275	4.000505e-03	1.800000e+00	0.000000e+00	1.816228e-01	
276	4.000505e-03	1.800000e+00	0.000000e+00	1.817647e-01	
277	4.000505e-03	1.800000e+00	0.000000e+00	1.819227e-01	
278	4.000506e-03	1.800000e+00	0.000000e+00	1.821195e-01	
279	4.000507e-03	1.800000e+00	0.000000e+00	1.824003e-01	
280	4.000508e-03	1.800000e+00	0.000000e+00	1.827288e-01	
281	4.000509e-03	1.800000e+00	0.000000e+00	1.831515e-01	
282	4.000510e-03	1.800000e+00	0.000000e+00	1.837666e-01	
283	4.000513e-03	1.800000e+00	0.000000e+00	1.847511e-01	
284	4.000519e-03	1.800000e+00	0.000000e+00	1.867203e-01	
285	4.000530e-03	1.800000e+00	0.000000e+00	1.906586e-01	
286	4.000551e-03	1.800000e+00	0.000000e+00	1.985351e-01	

Index   time            a0              a1              b0              
--------------------------------------------------------------------------------
287	4.000595e-03	1.800000e+00	0.000000e+00	2.142883e-01	
288	4.000683e-03	1.800000e+00	0.000000e+00	2.457945e-01	
289	4.000858e-03	1.800000e+00	0.000000e+00	3.088071e-01	
290	4.001208e-03	1.800000e+00	0.000000e+00	4.348322e-01	
291	4.001908e-03	1.800000e+00	0.000000e+00	6.868825e-01	
292	4.003308e-03	1.800000e+00	0.000000e+00	1.190983e+00	
293	4.005000e-03	1.800000e+00	0.000000e+00	1.800000e+00	
294	4.005280e-03	1.800000e+00	0.000000e+00	1.800000e+00	
295	4.005840e-03	1.800000e+00	0.000000e+00	1.800000e+00	
296	4.006960e-03	1.800000e+00	0.000000e+00	1.800000e+00	
297	4.009201e-03	1.800000e+00	0.000000e+00	1.800000e+00	
298	4.013682e-03	1.800000e+00	0.000000e+00	1.800000e+00	
299	4.022644e-03	1.800000e+00	0.000000e+00	1.800000e+00	
300	4.040567e-03	1.800000e+00	0.000000e+00	1.800000e+00	
301	4.076414e-03	1.800000e+00	0.000000e+00	1.800000e+00	
302	4.148109e-03	1.800000e+00	0.000000e+00	1.800000e+00	
303	4.291497e-03	1.800000e+00	0.000000e+00	1.800000e+00	
304	4.491497e-03	1.800000e+00	0.000000e+00	1.800000e+00	
305	4.505000e-03	1.800000e+00	0.000000e+00	1.800000e+00	
306	4.505500e-03	1.620000e+00	0.000000e+00	1.800000e+00	
307	4.506500e-03	1.260000e+00	0.000000e+00	1.800000e+00	
308	4.508500e-03	5.400000e-01	0.000000e+00	1.800000e+00	
309	4.510000e-03	0.000000e+00	0.000000e+00	1.800000e+00	
310	4.510002e-03	0.000000e+00	0.000000e+00	1.800000e+00	
311	4.510002e-03	0.000000e+00	0.000000e+00	1.800000e+00	
312	4.510002e-03	0.000000e+00	0.000000e+00	1.800000e+00	
313	4.510002e-03	0.000000e+00	0.000000e+00	1.800000e+00	
314	4.510002e-03	0.000000e+00	0.000000e+00	1.800000e+00	
315	4.510003e-03	0.000000e+00	0.000000e+00	1.800000e+00	
316	4.510003e-03	0.000000e+00	0.000000e+00	1.800000e+00	
317	4.510003e-03	0.000000e+00	0.000000e+00	1.800000e+00	
318	4.510003e-03	0.000000e+00	0.000000e+00	1.800000e+00	
319	4.510003e-03	0.000000e+00	0.000000e+00	1.800000e+00	
320	4.510003e-03	0.000000e+00	0.000000e+00	1.800000e+00	
321	4.510003e-03	0.000000e+00	0.000000e+00	1.800000e+00	
322	4.510003e-03	0.000000e+00	0.000000e+00	1.800000e+00	
323	4.510003e-03	0.000000e+00	0.000000e+00	1.800000e+00	
324	4.510003e-03	0.000000e+00	0.000000e+00	1.800000e+00	
325	4.510003e-03	0.000000e+00	0.000000e+00	1.800000e+00	
