    * c:\users\Nishit\esim-workspace\comparator\comparator.cir
    Transient Analysis  Tue Oct 04 19:34:28  2022
--------------------------------------------------------------------------------
Index   time            a3#branch_1_0   a3#branch_1_1   a3#branch_1_2   
--------------------------------------------------------------------------------
0	0.000000e+00	0.000000e+00	0.000000e+00	0.000000e+00	
1	5.000000e-08	2.646978e-22	-6.46657e-20	-6.92449e-20	
2	5.200000e-08	-2.96462e-21	-8.89385e-21	-1.56701e-20	
3	5.204564e-08	-1.63980e-05	2.626946e-06	7.587791e-07	
4	5.213693e-08	-1.94568e-05	9.532581e-07	1.409095e-06	
5	5.231949e-08	-2.27393e-05	1.196325e-06	1.043594e-06	
6	5.251843e-08	-2.41807e-05	-5.59067e-07	-4.17627e-06	
7	5.270466e-08	-2.43268e-05	-6.53859e-06	-1.38946e-05	
8	5.281325e-08	-1.42120e-05	-1.61846e-05	-1.65482e-05	
9	5.291926e-08	-2.28072e-05	-1.34752e-05	-9.85796e-06	
10	5.298606e-08	-2.73993e-05	-1.21095e-05	-9.40461e-06	
11	5.300000e-08	-2.58242e-05	-1.03721e-05	-6.73710e-06	
12	5.300542e-08	-9.73781e-06	-1.08622e-05	-7.78145e-06	
13	5.301625e-08	-8.38711e-06	-1.03577e-05	-7.37872e-06	
14	5.303793e-08	-6.77936e-06	-9.50686e-06	-6.74768e-06	
15	5.306957e-08	-4.94473e-06	-8.44282e-06	-5.92425e-06	
16	5.311261e-08	-3.46801e-06	-7.27291e-06	-5.06966e-06	
17	5.319868e-08	-1.67899e-06	-5.53357e-06	-3.78815e-06	
18	5.331625e-08	-6.24524e-07	-3.99459e-06	-2.70807e-06	
19	5.342625e-08	-2.78443e-07	-3.06164e-06	-2.03300e-06	
20	5.357251e-08	-1.75540e-07	-2.25297e-06	-1.48421e-06	
21	5.378065e-08	-6.88454e-08	-1.52808e-06	-9.62522e-07	
22	5.419692e-08	-5.21109e-08	-7.83913e-07	-4.75253e-07	
23	5.467486e-08	1.621179e-10	-3.91991e-07	-2.20438e-07	
24	5.539307e-08	-2.32254e-08	-1.54497e-07	-9.73361e-08	
25	5.624695e-08	1.456885e-08	-5.65326e-08	-2.71104e-08	
26	5.760829e-08	-1.79560e-08	-2.00557e-08	-2.00227e-08	
27	5.945786e-08	1.670907e-08	-5.16196e-09	4.213602e-09	
28	6.291397e-08	-1.72904e-08	-3.59330e-09	-9.81346e-09	
29	6.895401e-08	1.705174e-08	7.774689e-10	8.040025e-09	
30	8.103409e-08	-1.71656e-08	-1.72478e-09	-8.64485e-09	
31	1.051943e-07	1.711975e-08	1.409004e-09	8.446919e-09	
32	1.535146e-07	-1.71413e-08	-1.52028e-09	-8.51645e-09	
33	2.501552e-07	1.713302e-08	1.479838e-09	8.491314e-09	
34	4.434365e-07	-1.71368e-08	-1.49451e-09	-8.50049e-09	
35	8.299990e-07	1.713570e-08	1.489801e-09	8.497461e-09	
36	1.603124e-06	-1.71360e-08	-1.49090e-09	-8.49819e-09	
37	3.149374e-06	1.713605e-08	1.490824e-09	8.498145e-09	
38	5.000000e-06	-1.71361e-08	-1.49082e-09	-8.49814e-09	
39	5.309250e-06	3.723184e-14	-3.26036e-15	-3.21987e-15	
40	5.927750e-06	-3.82323e-14	-1.09892e-15	1.682591e-16	
41	7.164750e-06	3.803620e-14	3.336818e-16	-7.03839e-16	
42	9.638750e-06	-3.80237e-14	-2.91267e-16	7.361647e-16	
43	1.458675e-05	3.802002e-14	2.809488e-16	-7.45162e-16	
44	2.448275e-05	-3.80185e-14	-2.77206e-16	7.485632e-16	
45	4.427475e-05	3.801782e-14	2.755978e-16	-7.50069e-16	
46	8.385876e-05	-3.80175e-14	-2.74851e-16	7.507797e-16	
47	1.630268e-04	3.801733e-14	2.744913e-16	-7.51125e-16	
48	3.213628e-04	-3.80172e-14	-2.74315e-16	7.512949e-16	
49	5.213628e-04	3.801718e-14	2.741762e-16	-7.51428e-16	
50	7.213628e-04	-3.80171e-14	-2.74039e-16	7.515610e-16	
51	9.213628e-04	3.801706e-14	2.739033e-16	-7.51693e-16	
52	1.000000e-03	-3.80169e-14	-2.73564e-16	7.520229e-16	
53	1.000500e-03	-4.86239e-18	-7.02654e-18	-8.00523e-18	
54	1.000502e-03	3.128778e-18	-4.91199e-18	-5.80802e-18	

Index   time            a3#branch_1_0   a3#branch_1_1   a3#branch_1_2   
--------------------------------------------------------------------------------
55	1.000502e-03	1.655969e-05	-4.75851e-08	-4.55793e-08	
56	1.000502e-03	1.743772e-05	-9.78517e-08	-8.12153e-08	
57	1.000502e-03	1.948555e-05	-1.94153e-08	3.965229e-08	
58	1.000502e-03	2.584172e-05	-6.88434e-08	-1.31020e-07	
59	1.000503e-03	2.133998e-05	8.907506e-06	-1.93296e-07	
60	1.000503e-03	2.235800e-05	1.289802e-05	3.058949e-06	
61	1.000503e-03	1.977803e-05	3.200763e-06	1.482156e-05	
62	1.000503e-03	2.361727e-05	9.409867e-06	-8.92203e-07	
63	1.000503e-03	4.470499e-06	9.300455e-06	4.957094e-06	
64	1.000503e-03	3.245400e-06	7.027127e-06	5.696521e-06	
65	1.000503e-03	2.071826e-06	4.846386e-06	5.026277e-06	
66	1.000503e-03	9.657892e-07	2.197547e-06	2.400288e-06	
67	1.000503e-03	6.809237e-07	1.249103e-06	1.251781e-06	
68	1.000504e-03	3.225834e-07	4.503096e-07	6.125110e-07	
69	1.000504e-03	3.337428e-07	6.672272e-07	8.498361e-07	
70	1.000504e-03	2.750658e-07	7.019276e-07	1.325411e-06	
71	1.000504e-03	3.995340e-07	1.072334e-06	2.198400e-06	
72	1.000504e-03	4.334296e-07	1.228802e-06	3.398364e-06	
73	1.000504e-03	5.006393e-07	1.650685e-06	2.995666e-06	
74	1.000505e-03	5.718254e-07	1.574741e-06	3.672140e-06	
75	1.000505e-03	5.218277e-07	1.731216e-06	2.374202e-06	
76	1.000505e-03	4.482673e-07	1.059303e-06	2.160854e-06	
77	1.000506e-03	2.131011e-07	7.904596e-07	6.833066e-07	
78	1.000506e-03	1.273080e-07	1.351331e-07	7.082488e-07	
79	1.000507e-03	-9.86679e-09	1.824232e-07	-2.43516e-07	
80	1.000508e-03	4.303873e-08	-9.50588e-08	3.756575e-07	
81	1.000510e-03	-3.78519e-08	1.100427e-07	-3.56162e-07	
82	1.000512e-03	3.816814e-08	-1.09937e-07	3.579915e-07	
83	1.000516e-03	-3.82797e-08	1.100394e-07	-3.58735e-07	
84	1.000524e-03	3.832733e-08	-1.10115e-07	3.590553e-07	
85	1.000540e-03	-3.83519e-08	1.101452e-07	-3.59246e-07	
86	1.000572e-03	3.836413e-08	-1.10163e-07	3.593269e-07	
87	1.000637e-03	-3.83705e-08	1.101701e-07	-3.59375e-07	
88	1.000766e-03	3.837362e-08	-1.10175e-07	3.593955e-07	
89	1.001024e-03	-3.83752e-08	1.101763e-07	-3.59408e-07	
90	1.001541e-03	3.837602e-08	-1.10177e-07	3.594130e-07	
91	1.002574e-03	-3.83764e-08	1.101778e-07	-3.59416e-07	
92	1.004640e-03	3.837660e-08	-1.10178e-07	3.594171e-07	
93	1.005000e-03	-3.83778e-08	1.101794e-07	-3.59425e-07	
94	1.005413e-03	2.404133e-13	-3.44610e-13	1.584324e-12	
95	1.006240e-03	-2.40190e-13	3.452242e-13	-1.58779e-12	
96	1.007893e-03	2.399060e-13	-3.45830e-13	1.585837e-12	
97	1.011199e-03	-2.39846e-13	3.460846e-13	-1.58545e-12	
98	1.017811e-03	2.397903e-13	-3.46220e-13	1.585257e-12	
99	1.031034e-03	-2.39775e-13	3.462757e-13	-1.58516e-12	
100	1.057482e-03	2.397614e-13	-3.46310e-13	1.585112e-12	
101	1.110377e-03	-2.39758e-13	3.463235e-13	-1.58509e-12	
102	1.216168e-03	2.397542e-13	-3.46332e-13	1.585076e-12	
103	1.416168e-03	-2.39753e-13	3.463356e-13	-1.58507e-12	
104	1.616168e-03	2.397516e-13	-3.46340e-13	1.585063e-12	
105	1.816168e-03	-2.39750e-13	3.463441e-13	-1.58506e-12	
106	2.000000e-03	2.397483e-13	-3.46349e-13	1.585050e-12	
107	2.000500e-03	1.554816e-16	4.203706e-16	6.375025e-16	
108	2.000502e-03	-2.17001e-17	-6.27448e-17	-1.13478e-16	
109	2.000502e-03	-2.12504e-17	-6.16640e-17	-8.94196e-17	
110	2.000502e-03	-2.05456e-17	-5.25025e-17	-6.85487e-17	
111	2.000502e-03	-1.41217e-17	-3.78116e-17	-5.94007e-17	
112	2.000502e-03	-1.11673e-17	-3.05474e-17	-4.22568e-17	

Index   time            a3#branch_1_0   a3#branch_1_1   a3#branch_1_2   
--------------------------------------------------------------------------------
113	2.000503e-03	-8.84980e-18	-2.28496e-17	-3.53992e-17	
114	2.000503e-03	-6.42390e-18	-1.81739e-17	-2.54381e-17	
115	2.000503e-03	-5.85469e-18	-1.49078e-17	-2.29038e-17	
116	2.000503e-03	-5.69206e-18	-1.49620e-17	-2.21177e-17	
117	2.000503e-03	-5.42101e-18	-1.40946e-17	-2.08167e-17	
118	2.000503e-03	-5.09575e-18	-1.39320e-17	-1.98409e-17	
119	2.000503e-03	-4.17418e-18	-1.11131e-17	-1.67238e-17	
120	2.000503e-03	-4.14707e-18	-1.09775e-17	-1.57751e-17	
121	2.000503e-03	-3.49655e-18	-9.43256e-18	-1.42030e-17	
122	2.000503e-03	-3.44234e-18	-9.13440e-18	-1.32544e-17	
123	2.000503e-03	-2.81893e-18	-7.48099e-18	-1.17636e-17	
124	2.000504e-03	-2.81893e-18	-7.04731e-18	-1.00560e-17	
125	2.000504e-03	-1.84314e-18	-5.19062e-18	-8.32125e-18	
126	2.000504e-03	-1.93801e-18	-4.89246e-18	-6.61363e-18	
127	2.000504e-03	-1.01644e-18	-2.91379e-18	-4.86536e-18	
128	2.000504e-03	-1.13164e-18	-2.71728e-18	-3.53721e-18	
129	2.000505e-03	-2.57498e-19	-1.03677e-18	-2.08031e-18	
130	2.000505e-03	-4.98055e-19	-8.80914e-19	-7.86047e-19	
131	2.000507e-03	2.795209e-19	2.862971e-19	-9.14796e-20	
132	2.000509e-03	-2.88838e-19	-3.15943e-19	4.573978e-20	
133	2.000514e-03	2.913793e-19	3.184844e-19	-3.72694e-20	
134	2.000522e-03	-2.90744e-19	-3.17214e-19	4.319868e-20	
135	2.000536e-03	2.894735e-19	3.172138e-19	-4.27752e-20	
136	2.000561e-03	-2.91168e-19	-3.18379e-19	4.171637e-20	
137	2.000612e-03	2.912205e-19	3.191726e-19	-4.11870e-20	
138	2.000713e-03	-2.91459e-19	-3.19596e-19	4.071052e-20	
139	2.000915e-03	2.915249e-19	3.195829e-19	-4.08561e-20	
140	2.001320e-03	-2.91459e-19	-3.19437e-19	4.105463e-20	
141	2.002130e-03	2.914422e-19	3.194174e-19	-4.10943e-20	
142	2.003750e-03	-2.91439e-19	-3.19416e-19	4.111088e-20	
143	2.005000e-03	2.914455e-19	3.194257e-19	-4.10910e-20	
144	2.005324e-03	-3.30872e-23	-5.29396e-23	-6.61744e-23	
145	2.005972e-03	2.316106e-23	9.264423e-23	1.025704e-22	
146	2.007268e-03	-2.31611e-23	-6.78288e-23	-7.77550e-23	
147	2.009859e-03	1.902515e-23	7.361907e-23	7.527344e-23	
148	2.015042e-03	-2.27475e-23	-7.73414e-23	-8.06501e-23	
149	2.025408e-03	2.233388e-23	7.754818e-23	8.085690e-23	
150	2.046141e-03	-2.21271e-23	-7.48598e-23	-7.73414e-23	
151	2.087605e-03	2.166179e-23	7.449795e-23	7.703119e-23	
152	2.170534e-03	-2.17652e-23	-7.42653e-23	-7.65659e-23	
153	2.336393e-03	2.158424e-23	7.395512e-23	7.608769e-23	
154	2.505000e-03	-2.14938e-23	-7.36320e-23	-7.57775e-23	
155	2.505500e-03	-3.30872e-24	-1.48893e-23	-1.65436e-23	
156	2.506500e-03	-9.92617e-24	-1.48893e-23	-3.30872e-24	
157	2.508500e-03	1.406207e-23	2.729696e-23	9.926167e-24	
158	2.510000e-03	-8.27181e-24	-8.27181e-24	6.617445e-24	
159	2.510002e-03	8.470329e-22	0.000000e+00	-1.27055e-21	
160	2.510002e-03	-2.71051e-20	-2.71051e-20	-2.71051e-20	
161	2.510002e-03	-2.71051e-20	-2.71051e-20	-2.71051e-20	
162	2.510002e-03	-1.35525e-20	-5.42101e-20	6.776264e-20	
163	2.510002e-03	1.355253e-19	6.776264e-20	0.000000e+00	
164	2.510003e-03	-4.06576e-20	9.486769e-20	1.355253e-19	
165	2.510003e-03	2.710505e-20	-2.03288e-19	-1.08420e-19	
166	2.510003e-03	-5.42101e-20	1.897354e-19	3.252607e-19	
167	2.510003e-03	-2.71051e-20	-8.13152e-20	-1.62630e-19	
168	2.510003e-03	1.626303e-19	-1.08420e-19	0.000000e+00	
169	2.510003e-03	-1.62630e-19	5.421011e-20	-1.62630e-19	
170	2.510003e-03	2.710505e-19	-4.33681e-19	5.421011e-20	

Index   time            a3#branch_1_0   a3#branch_1_1   a3#branch_1_2   
--------------------------------------------------------------------------------
171	2.510003e-03	-2.71051e-19	0.000000e+00	1.084202e-19	
172	2.510003e-03	1.084202e-19	2.710505e-19	2.168404e-19	
173	2.510003e-03	8.673617e-19	-8.67362e-19	-2.60209e-18	
174	2.510003e-03	0.000000e+00	8.673617e-19	0.000000e+00	
175	2.510003e-03	-4.33681e-19	1.301043e-18	-1.30104e-18	
176	2.510003e-03	2.168404e-19	-1.95156e-18	6.505213e-19	
177	2.510003e-03	0.000000e+00	5.421011e-19	-1.84314e-18	
178	2.510003e-03	-2.16840e-19	-9.21572e-19	1.355253e-18	
179	2.510003e-03	3.252607e-19	1.111307e-18	-1.27394e-18	
180	2.510003e-03	-1.89735e-19	-8.26704e-19	1.382358e-18	
181	2.510003e-03	1.355253e-19	8.673617e-19	-1.30104e-18	
182	2.510004e-03	-1.96512e-19	-9.69006e-19	1.246832e-18	
183	2.510004e-03	2.473336e-19	9.520650e-19	-1.19940e-18	
184	2.510005e-03	-2.10064e-19	-9.08019e-19	1.219727e-18	
185	2.510006e-03	2.049820e-19	9.147956e-19	-1.21126e-18	
186	2.510008e-03	-2.20229e-19	-9.30042e-19	1.189234e-18	
187	2.510011e-03	2.134523e-19	9.291951e-19	-1.19432e-18	
188	2.510017e-03	-2.13876e-19	-9.28772e-19	1.199399e-18	
189	2.510030e-03	2.149346e-19	9.277128e-19	-1.20088e-18	
190	2.510056e-03	-2.15676e-19	-9.27501e-19	1.202363e-18	
191	2.510108e-03	2.154640e-19	9.271834e-19	-1.20258e-18	
192	2.510212e-03	-2.15570e-19	-9.27369e-19	1.202601e-18	
193	2.510419e-03	2.155964e-19	9.272628e-19	-1.20264e-18	
194	2.510834e-03	-2.15583e-19	-9.27316e-19	1.202641e-18	
195	2.511663e-03	2.155930e-19	9.273323e-19	-1.20267e-18	
196	2.513322e-03	-2.15591e-19	-9.27329e-19	1.202689e-18	
197	2.516639e-03	2.155972e-19	9.273315e-19	-1.20269e-18	
198	2.523274e-03	-2.15597e-19	-9.27332e-19	1.202683e-18	
199	2.536543e-03	2.155972e-19	9.273307e-19	-1.20268e-18	
200	2.563081e-03	-2.15597e-19	-9.27332e-19	1.202684e-18	
201	2.616158e-03	2.155972e-19	9.273317e-19	-1.20268e-18	
202	2.722313e-03	-2.15597e-19	-9.27331e-19	1.202684e-18	
203	2.922313e-03	2.155972e-19	9.273313e-19	-1.20268e-18	
204	3.122313e-03	-2.15597e-19	-9.27331e-19	1.202684e-18	
205	3.322313e-03	2.155972e-19	9.273313e-19	-1.20268e-18	
206	3.505000e-03	-2.15597e-19	-9.27331e-19	1.202684e-18	
207	3.505500e-03	0.000000e+00	-1.15805e-23	-2.64698e-23	
208	3.506500e-03	6.617445e-24	-1.65436e-24	2.316106e-23	
209	3.508500e-03	-5.79026e-24	-5.79026e-24	-1.81980e-23	
210	3.510000e-03	1.488925e-23	2.150670e-23	2.977850e-23	
211	3.510002e-03	1.694066e-21	1.694066e-21	8.470329e-22	
212	3.510002e-03	-1.62630e-19	-8.13152e-20	-1.62630e-19	
213	3.510002e-03	0.000000e+00	-2.71051e-19	2.710505e-20	
214	3.510002e-03	2.710505e-20	6.776264e-20	-2.03288e-19	
215	3.510002e-03	-1.35525e-20	-8.13152e-20	2.439455e-19	
216	3.510003e-03	1.355253e-20	9.486769e-20	-2.98156e-19	
217	3.510003e-03	-2.71051e-20	-2.16840e-19	2.846031e-19	
218	3.510003e-03	2.710505e-20	2.574980e-19	-1.89735e-19	
219	3.510003e-03	-2.16840e-19	-1.08420e-19	0.000000e+00	
220	3.510003e-03	-1.08420e-19	-2.16840e-19	1.084202e-19	
221	3.510003e-03	2.439455e-19	2.439455e-19	5.421011e-20	
222	3.510003e-03	-1.35525e-19	-2.16840e-19	-5.42101e-20	
223	3.510003e-03	1.897354e-19	1.897354e-19	6.776264e-20	
224	3.510004e-03	-1.49078e-19	-1.76183e-19	-4.06576e-20	
225	3.510004e-03	1.558541e-19	1.558541e-19	2.032879e-20	
226	3.510005e-03	-1.62630e-19	-1.93124e-19	-7.11508e-20	
227	3.510007e-03	1.711007e-19	1.880413e-19	4.235165e-20	
228	3.510011e-03	-1.76183e-19	-1.88041e-19	-3.47284e-20	

Index   time            a3#branch_1_0   a3#branch_1_1   a3#branch_1_2   
--------------------------------------------------------------------------------
229	3.510017e-03	1.757593e-19	1.888883e-19	3.599890e-20	
230	3.510028e-03	-1.75548e-19	-1.91006e-19	-3.76930e-20	
231	3.510049e-03	1.749123e-19	1.887825e-19	3.578714e-20	
232	3.510087e-03	-1.74806e-19	-1.87830e-19	-3.49401e-20	
233	3.510160e-03	1.748594e-19	1.882531e-19	3.525775e-20	
234	3.510296e-03	-1.74899e-19	-1.88491e-19	-3.55621e-20	
235	3.510560e-03	1.750049e-19	1.886303e-19	3.567465e-20	
236	3.511073e-03	-1.75051e-19	-1.88640e-19	-3.56879e-20	
237	3.512097e-03	1.750298e-19	1.886369e-19	3.568457e-20	
238	3.514144e-03	-1.75024e-19	-1.88618e-19	-3.56507e-20	
239	3.518238e-03	1.750256e-19	1.886146e-19	3.564818e-20	
240	3.526427e-03	-1.75026e-19	-1.88620e-19	-3.56542e-20	
241	3.542804e-03	1.750272e-19	1.886210e-19	3.565676e-20	
242	3.575558e-03	-1.75028e-19	-1.88622e-19	-3.56583e-20	
243	3.641067e-03	1.750280e-19	1.886228e-19	3.565903e-20	
244	3.772084e-03	-1.75028e-19	-1.88623e-19	-3.56588e-20	
245	3.972084e-03	1.750280e-19	1.886227e-19	3.565879e-20	
246	4.000000e-03	-1.75029e-19	-1.88624e-19	-3.56606e-20	
247	4.000500e-03	9.926167e-24	4.963084e-24	0.000000e+00	
248	4.000502e-03	0.000000e+00	5.929231e-21	5.929231e-21	
249	4.000502e-03	0.000000e+00	-5.42101e-20	1.355253e-19	
250	4.000502e-03	0.000000e+00	5.421011e-20	2.168404e-19	
251	4.000502e-03	4.065758e-20	-2.71051e-20	-1.21973e-19	
252	4.000502e-03	-2.71051e-20	5.421011e-20	1.355253e-19	
253	4.000503e-03	5.421011e-20	0.000000e+00	-5.42101e-20	
254	4.000503e-03	-8.13152e-20	2.710505e-20	1.897354e-19	
255	4.000503e-03	1.355253e-19	-8.13152e-20	5.421011e-20	
256	4.000503e-03	-1.62630e-19	1.084202e-19	0.000000e+00	
257	4.000503e-03	1.355253e-19	-8.13152e-20	-3.25261e-19	
258	4.000503e-03	-1.62630e-19	-2.71051e-20	1.897354e-19	
259	4.000503e-03	8.131516e-20	1.084202e-19	-1.89735e-19	
260	4.000503e-03	0.000000e+00	5.421011e-20	2.710505e-19	
261	4.000503e-03	-3.25261e-19	3.252607e-19	-2.16840e-19	
262	4.000503e-03	0.000000e+00	-1.08420e-19	-4.33681e-19	
263	4.000503e-03	5.421011e-20	-2.71051e-19	-1.08420e-18	
264	4.000503e-03	5.963112e-19	2.168404e-19	4.878910e-19	
265	4.000503e-03	-4.33681e-19	-4.87891e-19	-4.33681e-19	
266	4.000503e-03	4.878910e-19	7.589415e-19	4.878910e-19	
267	4.000503e-03	-5.14996e-19	-5.69206e-19	-3.52366e-19	
268	4.000503e-03	6.505213e-19	5.421011e-19	2.574980e-19	
269	4.000504e-03	-6.50521e-19	-5.28549e-19	-3.38813e-19	
270	4.000504e-03	7.182839e-19	5.827587e-19	4.201283e-19	
271	4.000504e-03	-6.77626e-19	-6.50521e-19	-2.57498e-19	
272	4.000504e-03	7.318365e-19	7.047314e-19	2.981556e-19	
273	4.000504e-03	-8.13152e-19	-7.31836e-19	-1.89735e-19	
274	4.000504e-03	8.402567e-19	6.911789e-19	2.846031e-19	
275	4.000505e-03	-7.86047e-19	-6.50521e-19	-2.57498e-19	
276	4.000505e-03	7.589415e-19	6.234162e-19	2.642743e-19	
277	4.000505e-03	-7.92823e-19	-6.50521e-19	-3.11708e-19	
278	4.000506e-03	7.555534e-19	6.437450e-19	2.744387e-19	
279	4.000507e-03	-7.45389e-19	-6.23416e-19	-2.57498e-19	
280	4.000508e-03	7.521653e-19	6.335806e-19	2.710505e-19	
281	4.000509e-03	-7.64024e-19	-6.33581e-19	-2.82909e-19	
282	4.000510e-03	7.640237e-19	6.352747e-19	2.913793e-19	
283	4.000513e-03	-7.65718e-19	-6.27651e-19	-2.82909e-19	
284	4.000519e-03	7.678354e-19	6.272279e-19	2.782503e-19	
285	4.000530e-03	-7.65930e-19	-6.24052e-19	-2.75921e-19	
286	4.000551e-03	7.643414e-19	6.233104e-19	2.747563e-19	

Index   time            a3#branch_1_0   a3#branch_1_1   a3#branch_1_2   
--------------------------------------------------------------------------------
287	4.000595e-03	-7.64553e-19	-6.22887e-19	-2.75127e-19	
288	4.000683e-03	7.646061e-19	6.232839e-19	2.760269e-19	
289	4.000858e-03	-7.64606e-19	-6.23403e-19	-2.76159e-19	
290	4.001208e-03	7.645862e-19	6.234030e-19	2.761857e-19	
291	4.001908e-03	-7.64616e-19	-6.23433e-19	-2.76255e-19	
292	4.003308e-03	7.646259e-19	6.234692e-19	2.763114e-19	
293	4.005000e-03	-7.64629e-19	-6.23489e-19	-2.76353e-19	
294	4.005280e-03	9.926167e-24	5.955700e-23	7.940934e-23	
295	4.005840e-03	-4.96308e-23	-6.61744e-23	-1.12497e-22	
296	4.006960e-03	2.150670e-23	5.624828e-23	7.113753e-23	
297	4.009201e-03	-2.06795e-23	-2.81241e-23	-5.04580e-23	
298	4.013682e-03	1.613002e-23	2.771055e-23	4.508134e-23	
299	4.022644e-03	-1.81980e-23	-2.91581e-23	-4.81833e-23	
300	4.040567e-03	1.737079e-23	3.060568e-23	4.983763e-23	
301	4.076414e-03	-1.80429e-23	-3.09159e-23	-5.01995e-23	
302	4.148109e-03	1.793948e-23	3.107097e-23	5.040632e-23	
303	4.291497e-03	-1.79912e-23	-3.11356e-23	-5.01866e-23	
304	4.491497e-03	1.804288e-23	3.116144e-23	5.041924e-23	
305	4.505000e-03	-1.84048e-23	-3.24668e-23	-5.19056e-23	
306	4.505500e-03	-4.96308e-24	-1.32349e-23	-6.61744e-24	
307	4.506500e-03	-4.96308e-24	-4.96308e-24	-2.31611e-23	
308	4.508500e-03	1.240771e-23	2.564260e-23	3.805031e-23	
309	4.510000e-03	-1.65436e-24	-2.15067e-23	-1.65436e-23	
310	4.510002e-03	1.694066e-21	2.541099e-21	2.117582e-21	
311	4.510002e-03	6.432776e-07	3.083128e-06	-1.39012e-05	
312	4.510002e-03	1.131035e-06	2.356729e-06	-1.61417e-05	
313	4.510002e-03	7.042842e-07	2.045269e-06	-1.96858e-05	
314	4.510002e-03	8.348682e-08	-1.39618e-07	-2.79161e-05	
315	4.510003e-03	-7.20351e-07	-8.04358e-07	-2.81466e-05	
316	4.510003e-03	-2.15841e-06	-4.98567e-06	-2.09463e-05	
317	4.510003e-03	-1.67994e-06	-4.01147e-07	-2.19165e-05	
318	4.510003e-03	-2.03031e-06	-6.17216e-06	-2.30245e-05	
319	4.510003e-03	-1.10206e-06	5.721653e-07	-3.06468e-05	
320	4.510003e-03	-1.29344e-06	-4.81230e-06	-1.99665e-05	
321	4.510003e-03	-5.21032e-07	1.505688e-06	-2.63098e-05	
322	4.510003e-03	-9.17228e-07	-1.66460e-06	-6.33518e-06	
323	4.510003e-03	-8.38412e-07	-1.51999e-06	-5.45277e-06	
324	4.510003e-03	-7.02804e-07	-1.27681e-06	-4.03589e-06	
325	4.510003e-03	-5.10803e-07	-9.59420e-07	-2.38180e-06	
